Time,V(vout2) Magnitude,V(vout2) Phase
100.0,0.00062366948322369,-0.322102600746625
100.23052380779,0.000627309482203489,-0.322845268569714
100.46157902784,0.000630966283453703,-0.323589649421622
100.69316688518,0.000634639964543015,-0.32433574725824
100.925288607668,0.00063833060338894,-0.325083566044627
101.15794542599,0.000642038278273247,-0.325833109755026
101.391138573668,0.000645763067836179,-0.326584382372897
101.62486928707,0.000649505051095728,-0.327337387890926
101.859138805412,0.000653264307395568,-0.32809213031106
102.093948370768,0.000657040916507261,-0.328848613644513
102.329299228075,0.000660834958506832,-0.329606841911802
102.565192625141,0.000664646513882759,-0.330366819142761
102.801629812647,0.000668475663478122,-0.331128549376561
103.038612044162,0.000672322488513738,-0.331892036661743
103.27614057614,0.000676187070576586,-0.332657285056228
103.514216667934,0.000680069491639095,-0.333424298627343
103.752841581801,0.000683969834064922,-0.334193081451844
103.992016582906,0.000687888180576168,-0.334963637615938
104.23174293933,0.000691824614274588,-0.335735971215306
104.47202192208,0.000695779218664728,-0.336510086355122
104.71285480509,0.000699752077626929,-0.337285987150078
104.954242865232,0.000703743275432747,-0.338063677724406
105.196187382322,0.000707752896727596,-0.338843162211901
105.438689639126,0.00071178102656353,-0.339624444755937
105.681750921366,0.000715827750393454,-0.340407529509501
105.925372517729,0.000719893154038338,-0.341192420635207
106.169555719872,0.000723977323729639,-0.341979122305322
106.414301822431,0.000728080346101588,-0.342767638701783
106.659612123026,0.000732202308187325,-0.343557974016231
106.905487922266,0.000736343297413115,-0.344350132450022
107.15193052376,0.000740503401615701,-0.345144118214256
107.398941234124,0.000744682709034585,-0.345939935529799
107.646521362983,0.000748881308310096,-0.346737588627308
107.894672222983,0.00075309928851232,-0.347537081747248
108.143395129794,0.00075733673910445,-0.348338419139919
108.39269140212,0.000761593749956284,-0.349141605065482
108.642562361706,0.000765870411386649,-0.349946643793971
108.893009333343,0.000770166814090117,-0.350753539605336
109.144033644875,0.000774483049200639,-0.351562296789443
109.395636627209,0.000778819208281901,-0.352372919646114
109.647819614318,0.000783175383298394,-0.353185412485143
109.900583943252,0.000787551666648195,-0.353999779626326
110.153930954141,0.000791948151172603,-0.354816025399472
110.407861990207,0.000796364930119502,-0.35563415414444
110.662378397766,0.000800802097158776,-0.356454170211157
110.91748152624,0.000805259746436313,-0.357276077959636
111.173172728159,0.000809737972481424,-0.358099881760014
111.429453359173,0.000814236870293633,-0.358925585992559
111.686324778056,0.000818756535298309,-0.359753195047705
111.943788346715,0.000823297063371736,-0.360582713326075
112.201845430196,0.000827858550810256,-0.3614141452385
112.460497396692,0.000832441094380404,-0.362247495206046
112.719745617551,0.000837044791289976,-0.363082767660036
112.979591467279,0.000841669739168745,-0.363919967042084
113.240036323555,0.000846316036143661,-0.364759097804097
113.501081567231,0.000850983780748217,-0.365600164408328
113.762728582343,0.000855673072005365,-0.366443171327377
114.024978756116,0.000860384009375443,-0.367288123044224
114.287833478977,0.000865116692792815,-0.368135024052256
114.551294144553,0.000869871222633083,-0.368983878855288
114.815362149688,0.000874647699759363,-0.369834691967587
115.080038894443,0.000879446225485645,-0.370687467913902
115.345325782109,0.000884266901588357,-0.371542211229479
115.611224219209,0.000889109830325646,-0.372398926460095
115.877735615512,0.000893975114433517,-0.373257618162078
116.144861384034,0.000898862857098833,-0.374118290902333
116.412602941049,0.000903773162013306,-0.374980949258366
116.680961706096,0.000908706133321423,-0.37584559781831
116.949939101987,0.000913661875659013,-0.376712241180953
117.219536554813,0.000918640494151316,-0.377580883955753
117.489755493952,0.000923642094409118,-0.378451530762875
117.76059735208,0.00092866678251718,-0.379324186233212
118.032063565172,0.000933714665053515,-0.380198855008405
118.304155572516,0.000938785849100956,-0.381075541740876
118.576874816716,0.000943880442235583,-0.381954251093849
118.850222743701,0.000948998552515143,-0.382834987741376
119.124200802737,0.000954140288490622,-0.383717756368366
119.398810446427,0.000959305759246732,-0.384602561670605
119.674053130724,0.000964495074355631,-0.385489408354781
119.949930314937,0.000969708343874982,-0.386378301138521
120.226443461741,0.000974945678409666,-0.387269244750401
120.503594037179,0.000980207189034635,-0.388162243929988
120.781383510677,0.000985492987368188,-0.389057303427846
121.059813355048,0.000990803185533403,-0.389954428005582
121.338885046497,0.000996137896158124,-0.390853622435864
121.618600064636,0.00100149723241739,-0.39175489150244
121.898959892486,0.00100688130798907,-0.392658240000176
122.179966016487,0.00101229023707122,-0.393563672735074
122.461619926504,0.00101772413441099,-0.394471194524304
122.74392311584,0.001023183115268,-0.395380810196223
123.026877081238,0.00102866729544133,-0.396292524590408
123.31048332289,0.00103417679126178,-0.397206342557684
123.59474334445,0.0010397117195996,-0.39812226896014
123.879658653036,0.00104527219785483,-0.399040308671169
124.16523075924,0.00105085834399202,-0.399960466575481
124.451461177138,0.001056470276492,-0.400882747569144
124.738351424294,0.00106210811440395,-0.4018071565596
125.025903021771,0.00106777197732032,-0.402733698465692
125.314117494141,0.00107346198537299,-0.403662378217703
125.602996369487,0.00107917825928142,-0.404593200757369
125.892541179416,0.00108492092028523,-0.405526171037909
126.182753459066,0.00109069009020004,-0.40646129402406
126.473634747114,0.00109648589141752,-0.407398574692096
126.765186585784,0.00110230844686678,-0.408338018029856
127.057410520853,0.00110815788006839,-0.409279629036777
127.350308101665,0.00111403431509386,-0.410223412723917
127.643880881134,0.00111993787660034,-0.411169374113983
127.938130415752,0.00112586868982098,-0.412117518241358
128.233058265601,0.00113182688056687,-0.413067850152127
128.528665994361,0.00113781257521736,-0.414020374904111
128.824955169313,0.00114382590075093,-0.414975097566892
129.121927361353,0.0011498669847201,-0.415932023221833
129.419584144998,0.00115593595528424,-0.416891156962116
129.717927098395,0.00116203294115936,-0.417852503892773
130.016957803328,0.00116815807170495,-0.418816069130691
130.316677845229,0.00117431147683718,-0.419781857804675
130.617088813183,0.00118049328709634,-0.420749875055443
130.91819229994,0.00118670363360061,-0.421720126035679
131.21998990192,0.00119294264810968,-0.422692615910043
131.522483219223,0.00119921046294371,-0.423667349855216
131.82567385564,0.00120550721108172,-0.42464433305991
132.129563418657,0.00121183302609214,-0.425623570724914
132.434153519466,0.00121818804216365,-0.426605068063113
132.739445772973,0.00122457239409941,-0.427588830299517
133.045441797808,0.00123098621733439,-0.428574862671294
133.352143216332,0.00123742964792574,-0.429563170427793
133.659551654643,0.00124390282255082,-0.430553758830577
133.967668742593,0.00125040587853422,-0.431546633153454
134.276496113786,0.0012569389538227,-0.4325417986825
134.586035405594,0.00126350218700633,-0.433539260716087
134.896288259165,0.00127009571729156,-0.434539024564927
135.207256319427,0.00127671968458216,-0.435541095552077
135.518941235103,0.0012833742293616,-0.436545479012993
135.831344658715,0.00129005949281258,-0.437552180295542
136.144468246594,0.00129677561673606,-0.438561204760041
136.458313658892,0.00130352274362644,-0.439572557779276
136.772882559584,0.0013103010165925,-0.440586244738547
137.088176616484,0.00131711057942102,-0.441602271035686
137.404197501251,0.00132395157657676,-0.442620642081087
137.720946889394,0.00133082415317935,-0.443641363297742
138.038426460288,0.00133772845501096,-0.444664440121267
138.356637897177,0.00134466462854137,-0.445689877999933
138.675582887188,0.00135163282090677,-0.446717682394696
138.995263121334,0.00135863317992899,-0.447747858779222
139.315680294529,0.00136566585411362,-0.448780412639929
139.636836105593,0.00137273099263646,-0.449815349476007
139.958732257261,0.00137982874538789,-0.450852674799449
140.281370456195,0.00138695926292847,-0.451892394135088
140.60475241299,0.00139412269652372,-0.452934513020621
140.928879842186,0.00140131919813244,-0.453979037006644
141.253754462274,0.00140854892042221,-0.455025971656676
141.579377995707,0.00141581201676163,-0.456075322547201
141.905752168908,0.0014231086412261,-0.457127095267688
142.232878712281,0.00143043894861133,-0.458181295420624
142.560759360218,0.00143780309440436,-0.459237928621556
142.889395851109,0.0014452012348376,-0.460297000499098
143.218789927353,0.00145263352685406,-0.461358516694991
143.548943335364,0.00146010012811897,-0.462422482864115
143.879857825583,0.00146760119702549,-0.463488904674523
144.211535152486,0.00147513689270437,-0.464557787807481
144.543977074592,0.00148270737501819,-0.465629137957482
144.877185354475,0.00149031280456322,-0.466702960832308
145.211161758773,0.0014979533426791,-0.467779262153021
145.545908058195,0.00150562915145456,-0.46885804765403
145.881426027534,0.0015133403937217,-0.469939323083105
146.217717445671,0.00152108723307905,-0.471023094201409
146.55478409559,0.00152886983384726,-0.47210936678354
146.892627764385,0.00153668836114618,-0.473198146617552
147.231250243271,0.00154454298083126,-0.474289439504993
147.570653327588,0.00155243385953399,-0.475383251260931
147.910838816819,0.00156036116464262,-0.476479587714003
148.251808514594,0.00156832506434655,-0.477578454706421
148.593564228699,0.00157632572758416,-0.478679858094027
148.93610777109,0.0015843633240853,-0.479783803746316
149.279440957898,0.00159243802436356,-0.480890297546466
149.623565609442,0.0016005499997104,-0.48199934539138
149.968483550236,0.0016086994222319,-0.483110953191706
150.314196609001,0.00161688646480041,-0.484225126871883
150.660706618673,0.00162511130110092,-0.485341872370167
151.008015416413,0.00163337410562329,-0.486461195638658
151.356124843619,0.00164167505365838,-0.487583102643346
151.705036745932,0.00165001432130383,-0.488707599364138
152.054752973248,0.00165839208547177,-0.489834691794888
152.405275379728,0.00166680852390229,-0.490964385943434
152.756605823806,0.00167526381514804,-0.492096687831631
153.108746168202,0.00168375813856065,-0.493231603495384
153.461698279928,0.00169229167437949,-0.494369138984683
153.815464030302,0.00170086460362363,-0.49550930036363
154.170045294954,0.00170947710815741,-0.496652093710491
154.52544395384,0.00171812937071164,-0.497797525117699
154.881661891247,0.0017268215748257,-0.498945600691923
155.238700995807,0.00173555390491895,-0.500096326554071
155.596563160506,0.00174432654623279,-0.501249708839346
155.955250282694,0.00175313968488854,-0.502405753697268
156.314764264094,0.00176199350785657,-0.503564467291716
156.675107010813,0.00177088820296398,-0.504725855800955
157.036280433354,0.0017798239589139,-0.505889925417675
157.39828644662,0.00178880096528351,-0.507056682349028
157.761126969933,0.00179781941252408,-0.508226132816652
158.124803927037,0.0018068794919474,-0.509398283056721
158.48931924611,0.00181598139577786,-0.510573139319965
158.854674859776,0.00182512531711388,-0.511750707871713
159.220872705115,0.00183431144993944,-0.512930994991931
159.587914723672,0.00184353998914722,-0.514114006975245
159.955802861465,0.00185281113052315,-0.51529975013099
160.324539069002,0.00186212507075415,-0.516488230783237
160.694125301286,0.00187148200744346,-0.517679455270824
161.064563517825,0.00188088213909913,-0.518873429947409
161.435855682647,0.00189032566514362,-0.520070161181487
161.808003764305,0.00189981278593691,-0.521269655356431
162.181009735891,0.00190934370275531,-0.522471918870531
162.554875575047,0.00191891861778368,-0.523676958137033
162.92960326397,0.0019285377341791,-0.524884779584164
163.305194789432,0.00193820125600527,-0.526095389655175
163.681652142779,0.00194790938829226,-0.527308794808376
164.058977319952,0.00195766233699986,-0.528525001517175
164.437172321491,0.00196746030903302,-0.529744016270107
164.816239152549,0.00197730351228037,-0.530965845570878
165.1961798229,0.00198719215556599,-0.532190495938395
165.576996346951,0.00199712644868413,-0.533417973906809
165.958690743754,0.00200710660240496,-0.534648286025549
166.341265037015,0.00201713282846686,-0.535881438859347
166.724721255104,0.00202720533958022,-0.537117438988303
167.109061431069,0.00203732434944674,-0.538356293007892
167.494287602642,0.00204749007275554,-0.539598007529015
167.880401812254,0.00205770272517546,-0.540842589178042
168.267406107045,0.0020679625233897,-0.542090044596832
168.655302538872,0.00207826968506306,-0.543340380442789
169.044093164324,0.00208862442888046,-0.544593603388881
169.433780044731,0.00209902697453348,-0.545849720123698
169.824365246172,0.00210947754271061,-0.54710873735147
170.215850839493,0.00211997635514938,-0.548370661792117
170.60823890031,0.00213052363459194,-0.549635500181282
171.001531509027,0.00214111960481978,-0.550903259270366
171.39573075084,0.00215176449063054,-0.55217394582658
171.790838715757,0.00216245851788044,-0.553447566632965
172.186857498599,0.00217320191345341,-0.554724128488437
172.583789199018,0.00218399490529574,-0.556003638207831
172.981635921508,0.00219483772239492,-0.557286102621931
173.380399775412,0.00220573059479303,-0.558571528577515
173.780082874935,0.00221667375360029,-0.559859922937387
174.180687339159,0.00222766743101043,-0.561151292580424
174.582215292048,0.00223871186026406,-0.562445644401606
174.984668862463,0.0022498072756891,-0.563742985312065
175.388050184174,0.00226095391269308,-0.565043322239109
175.792361395867,0.00227215200778239,-0.566346662126274
176.197604641161,0.00228340179853528,-0.567653011933362
176.603782068614,0.00229470352364422,-0.568962378636478
177.01089583174,0.00230605742290051,-0.570274769228058
177.418948089014,0.00231746373720383,-0.57159019071693
177.82794100389,0.00232892270854879,-0.572908650128345
178.237876744807,0.00234043458007885,-0.574230154504006
178.648757485203,0.00235199959603811,-0.57555471090212
179.060585403527,0.0023636180018002,-0.576882326397431
179.47336268325,0.00237529004388565,-0.578213008081268
179.887091512876,0.0023870159699348,-0.579546763061584
180.301774085954,0.00239879602874835,-0.580883598462979
180.71741260109,0.00241063047027184,-0.582223521426767
181.134009261958,0.00242251954558796,-0.583566539110998
181.551566277311,0.0024344635069705,-0.584912658690501
181.970085860996,0.0024464626078342,-0.586261887356931
182.389570231961,0.00245851710277519,-0.587614232318807
182.810021614272,0.0024706272475556,-0.588969700801551
183.231442237119,0.0024827932991266,-0.590328300047529
183.653834334832,0.00249501551562455,-0.591690037316095
184.077200146893,0.00250729415638838,-0.593054919883622
184.501541917945,0.00251962948193246,-0.594422955043566
184.926861897805,0.00253202175399488,-0.595794150106483
185.353162341478,0.00254447123550846,-0.597168512400079
185.780445509167,0.00255697819062578,-0.59854604926926
186.208713666284,0.00256954288473266,-0.599926768076164
186.637969083464,0.00258216558441731,-0.601310676200199
187.068214036577,0.00259484655751075,-0.602697781038105
187.499450806739,0.00260758607308487,-0.60408809000397
187.931681680324,0.00262038440144664,-0.605481610529289
188.364908948977,0.00263324181415541,-0.606878350063006
188.799134909627,0.00264615858401904,-0.608278316071546
189.234361864495,0.00265913498512085,-0.609681516038866
189.670592121112,0.00267217129279456,-0.6110879574665
190.107827992327,0.00268526778365505,-0.612497647873588
190.546071796322,0.00269842473558877,-0.613910594796939
190.985325856621,0.00271164242776713,-0.615326805791053
191.425592502106,0.00272492114065425,-0.616746288428182
191.866874067026,0.00273826115600495,-0.61816905029836
192.309172891013,0.00275166275687824,-0.619595099009454
192.752491319091,0.00276512622763924,-0.621024442187203
193.196831701689,0.00277865185397065,-0.62245708747527
193.642196394658,0.00279223992287473,-0.623893042535269
194.088587759275,0.00280589072266744,-0.625332315046826
194.536008162263,0.00281960454301503,-0.626774912707614
194.984459975802,0.00283338167490512,-0.6282208432334
195.433945577536,0.00284722241067942,-0.629670114358088
195.884467350596,0.00286112704402217,-0.631122733833756
196.336027683602,0.00287509586998895,-0.632578709430724
196.788628970681,0.00288912918497975,-0.634038048937563
197.242273611482,0.0029032272867755,-0.635500760161172
197.696964011183,0.00291739047453227,-0.636966850926802
198.152702580507,0.00293161904878125,-0.638436329078114
198.609491735734,0.00294591331144993,-0.639909202477214
199.067333898716,0.00296027356585432,-0.641385479004704
199.526231496885,0.00297470011671437,-0.642865166559724
199.986186963271,0.00298919327015584,-0.644348273060001
200.447202736513,0.00300375333371223,-0.645834806441892
200.90928126087,0.00301838061635939,-0.647324774660426
201.372424986236,0.00303307542848084,-0.648818185689361
201.836636368153,0.00304783808189663,-0.650315047521212
202.301917867824,0.00306266888987293,-0.651815368167316
202.768271952125,0.0030775681671085,-0.65331915565787
203.235701093619,0.00309253622978288,-0.654826418041967
203.704207770569,0.00310757339551777,-0.656337163387658
204.17379446695,0.00312267998340012,-0.657851399781995
204.644463672464,0.00313785631399368,-0.65936913533107
205.116217882553,0.00315310270934667,-0.66089037816007
205.589059598411,0.00316841949300136,-0.662415136413318
206.062991326997,0.00318380698997479,-0.663943418254323
206.53801558105,0.00319926552680495,-0.665475231865825
207.014134879101,0.0032147954315238,-0.66701058544985
207.491351745488,0.00323039703369382,-0.668549487227738
207.969668710366,0.00324607066438487,-0.670091945440217
208.449088309726,0.00326181665620882,-0.671637968347429
208.929613085401,0.00327763534330603,-0.673187564228991
209.411245585086,0.00329352706136264,-0.67474074138403
209.893988362349,0.00330949214760286,-0.676297508131247
210.377843976644,0.00332553094084286,-0.677857872808955
210.862814993325,0.00334164378142906,-0.679421843775121
211.348903983661,0.00335783101129786,-0.680989429407426
211.836113524847,0.00337409297396012,-0.682560638103322
212.324446200018,0.00339043001452048,-0.684135478280046
212.813904598268,0.00340684247965797,-0.685713958374717
213.304491314654,0.00342333071767802,-0.687296086844339
213.79620895022,0.00343989507848933,-0.688881872165871
214.289060112002,0.00345653591359992,-0.69047132283629
214.78304741305,0.0034732535761653,-0.69206444737261
215.278173472434,0.00349004842095178,-0.693661254311962
215.774440915263,0.0035069208043808,-0.695261752211616
216.271852372698,0.00352387108450956,-0.696865949649048
216.770410481966,0.00354089962105219,-0.698473855221983
217.270117886371,0.0035580067753913,-0.700085477548461
217.770977235312,0.0035751929105798,-0.701700825266848
218.272991184296,0.00359245839132743,-0.703319907035934
218.776162394951,0.00360980358404691,-0.70494273153495
219.280493535041,0.00362722885684815,-0.706569307463641
219.785987278479,0.00364473457952853,-0.708199643542291
220.292646305342,0.0036623211236095,-0.709833748511793
220.800473301886,0.00367998886230182,-0.711471631133702
221.30947096056,0.0036977381705672,-0.713113300190273
221.819641980018,0.00371556942508933,-0.714758764484515
222.330989065136,0.00373348300428924,-0.716408032840259
222.843514927026,0.00375147928835032,-0.718061114102187
223.357222283049,0.0037695586591932,-0.719718017135893
223.87211385683,0.00378772150052196,-0.721378750827933
224.388192378273,0.0038059681977778,-0.723043324085894
224.905460583574,0.00382429913823927,-0.724711745838411
225.423921215239,0.00384271471093346,-0.726384025035255
225.943577022094,0.00386121530667845,-0.728060170647362
226.464430759302,0.00387980131814485,-0.729740191666895
226.986485188378,0.00389847313976134,-0.731424097107296
