Freq.	V(vout2)
1.00000000000000e+02	(6.23669483223690e-04dB,-3.22102600746625e-01°)
1.00230523807790e+02	(6.27309482203489e-04dB,-3.22845268569714e-01°)
1.00461579027840e+02	(6.30966283453703e-04dB,-3.23589649421622e-01°)
1.00693166885180e+02	(6.34639964543015e-04dB,-3.24335747258240e-01°)
1.00925288607668e+02	(6.38330603388940e-04dB,-3.25083566044627e-01°)
1.01157945425990e+02	(6.42038278273247e-04dB,-3.25833109755026e-01°)
1.01391138573668e+02	(6.45763067836179e-04dB,-3.26584382372897e-01°)
1.01624869287070e+02	(6.49505051095728e-04dB,-3.27337387890926e-01°)
1.01859138805412e+02	(6.53264307395568e-04dB,-3.28092130311060e-01°)
1.02093948370768e+02	(6.57040916507261e-04dB,-3.28848613644513e-01°)
1.02329299228075e+02	(6.60834958506832e-04dB,-3.29606841911802e-01°)
1.02565192625141e+02	(6.64646513882759e-04dB,-3.30366819142761e-01°)
1.02801629812647e+02	(6.68475663478122e-04dB,-3.31128549376561e-01°)
1.03038612044162e+02	(6.72322488513738e-04dB,-3.31892036661743e-01°)
1.03276140576140e+02	(6.76187070576586e-04dB,-3.32657285056228e-01°)
1.03514216667934e+02	(6.80069491639095e-04dB,-3.33424298627343e-01°)
1.03752841581801e+02	(6.83969834064922e-04dB,-3.34193081451844e-01°)
1.03992016582906e+02	(6.87888180576168e-04dB,-3.34963637615938e-01°)
1.04231742939330e+02	(6.91824614274588e-04dB,-3.35735971215306e-01°)
1.04472021922080e+02	(6.95779218664728e-04dB,-3.36510086355122e-01°)
1.04712854805090e+02	(6.99752077626929e-04dB,-3.37285987150078e-01°)
1.04954242865232e+02	(7.03743275432747e-04dB,-3.38063677724406e-01°)
1.05196187382322e+02	(7.07752896727596e-04dB,-3.38843162211901e-01°)
1.05438689639126e+02	(7.11781026563530e-04dB,-3.39624444755937e-01°)
1.05681750921366e+02	(7.15827750393454e-04dB,-3.40407529509501e-01°)
1.05925372517729e+02	(7.19893154038338e-04dB,-3.41192420635207e-01°)
1.06169555719872e+02	(7.23977323729639e-04dB,-3.41979122305322e-01°)
1.06414301822431e+02	(7.28080346101588e-04dB,-3.42767638701783e-01°)
1.06659612123026e+02	(7.32202308187325e-04dB,-3.43557974016231e-01°)
1.06905487922266e+02	(7.36343297413115e-04dB,-3.44350132450022e-01°)
1.07151930523760e+02	(7.40503401615701e-04dB,-3.45144118214256e-01°)
1.07398941234124e+02	(7.44682709034585e-04dB,-3.45939935529799e-01°)
1.07646521362983e+02	(7.48881308310096e-04dB,-3.46737588627308e-01°)
1.07894672222983e+02	(7.53099288512320e-04dB,-3.47537081747248e-01°)
1.08143395129794e+02	(7.57336739104450e-04dB,-3.48338419139919e-01°)
1.08392691402120e+02	(7.61593749956284e-04dB,-3.49141605065482e-01°)
1.08642562361706e+02	(7.65870411386649e-04dB,-3.49946643793971e-01°)
1.08893009333343e+02	(7.70166814090117e-04dB,-3.50753539605336e-01°)
1.09144033644875e+02	(7.74483049200639e-04dB,-3.51562296789443e-01°)
1.09395636627209e+02	(7.78819208281901e-04dB,-3.52372919646114e-01°)
1.09647819614318e+02	(7.83175383298394e-04dB,-3.53185412485143e-01°)
1.09900583943252e+02	(7.87551666648195e-04dB,-3.53999779626326e-01°)
1.10153930954141e+02	(7.91948151172603e-04dB,-3.54816025399472e-01°)
1.10407861990207e+02	(7.96364930119502e-04dB,-3.55634154144440e-01°)
1.10662378397766e+02	(8.00802097158776e-04dB,-3.56454170211157e-01°)
1.10917481526240e+02	(8.05259746436313e-04dB,-3.57276077959636e-01°)
1.11173172728159e+02	(8.09737972481424e-04dB,-3.58099881760014e-01°)
1.11429453359173e+02	(8.14236870293633e-04dB,-3.58925585992559e-01°)
1.11686324778056e+02	(8.18756535298309e-04dB,-3.59753195047705e-01°)
1.11943788346715e+02	(8.23297063371736e-04dB,-3.60582713326075e-01°)
1.12201845430196e+02	(8.27858550810256e-04dB,-3.61414145238500e-01°)
1.12460497396692e+02	(8.32441094380404e-04dB,-3.62247495206046e-01°)
1.12719745617551e+02	(8.37044791289976e-04dB,-3.63082767660036e-01°)
1.12979591467279e+02	(8.41669739168745e-04dB,-3.63919967042084e-01°)
1.13240036323555e+02	(8.46316036143661e-04dB,-3.64759097804097e-01°)
1.13501081567231e+02	(8.50983780748217e-04dB,-3.65600164408328e-01°)
1.13762728582343e+02	(8.55673072005365e-04dB,-3.66443171327377e-01°)
1.14024978756116e+02	(8.60384009375443e-04dB,-3.67288123044224e-01°)
1.14287833478977e+02	(8.65116692792815e-04dB,-3.68135024052256e-01°)
1.14551294144553e+02	(8.69871222633083e-04dB,-3.68983878855288e-01°)
1.14815362149688e+02	(8.74647699759363e-04dB,-3.69834691967587e-01°)
1.15080038894443e+02	(8.79446225485645e-04dB,-3.70687467913902e-01°)
1.15345325782109e+02	(8.84266901588357e-04dB,-3.71542211229479e-01°)
1.15611224219209e+02	(8.89109830325646e-04dB,-3.72398926460095e-01°)
1.15877735615512e+02	(8.93975114433517e-04dB,-3.73257618162078e-01°)
1.16144861384034e+02	(8.98862857098833e-04dB,-3.74118290902333e-01°)
1.16412602941049e+02	(9.03773162013306e-04dB,-3.74980949258366e-01°)
1.16680961706096e+02	(9.08706133321423e-04dB,-3.75845597818310e-01°)
1.16949939101987e+02	(9.13661875659013e-04dB,-3.76712241180953e-01°)
1.17219536554813e+02	(9.18640494151316e-04dB,-3.77580883955753e-01°)
1.17489755493952e+02	(9.23642094409118e-04dB,-3.78451530762875e-01°)
1.17760597352080e+02	(9.28666782517180e-04dB,-3.79324186233212e-01°)
1.18032063565172e+02	(9.33714665053515e-04dB,-3.80198855008405e-01°)
1.18304155572516e+02	(9.38785849100956e-04dB,-3.81075541740876e-01°)
1.18576874816716e+02	(9.43880442235583e-04dB,-3.81954251093849e-01°)
1.18850222743701e+02	(9.48998552515143e-04dB,-3.82834987741376e-01°)
1.19124200802737e+02	(9.54140288490622e-04dB,-3.83717756368366e-01°)
1.19398810446427e+02	(9.59305759246732e-04dB,-3.84602561670605e-01°)
1.19674053130724e+02	(9.64495074355631e-04dB,-3.85489408354781e-01°)
1.19949930314937e+02	(9.69708343874982e-04dB,-3.86378301138521e-01°)
1.20226443461741e+02	(9.74945678409666e-04dB,-3.87269244750401e-01°)
1.20503594037179e+02	(9.80207189034635e-04dB,-3.88162243929988e-01°)
1.20781383510677e+02	(9.85492987368188e-04dB,-3.89057303427846e-01°)
1.21059813355048e+02	(9.90803185533403e-04dB,-3.89954428005582e-01°)
1.21338885046497e+02	(9.96137896158124e-04dB,-3.90853622435864e-01°)
1.21618600064636e+02	(1.00149723241739e-03dB,-3.91754891502440e-01°)
1.21898959892486e+02	(1.00688130798907e-03dB,-3.92658240000176e-01°)
1.22179966016487e+02	(1.01229023707122e-03dB,-3.93563672735074e-01°)
1.22461619926504e+02	(1.01772413441099e-03dB,-3.94471194524304e-01°)
1.22743923115840e+02	(1.02318311526800e-03dB,-3.95380810196223e-01°)
1.23026877081238e+02	(1.02866729544133e-03dB,-3.96292524590408e-01°)
1.23310483322890e+02	(1.03417679126178e-03dB,-3.97206342557684e-01°)
1.23594743344450e+02	(1.03971171959960e-03dB,-3.98122268960140e-01°)
1.23879658653036e+02	(1.04527219785483e-03dB,-3.99040308671169e-01°)
1.24165230759240e+02	(1.05085834399202e-03dB,-3.99960466575481e-01°)
1.24451461177138e+02	(1.05647027649200e-03dB,-4.00882747569144e-01°)
1.24738351424294e+02	(1.06210811440395e-03dB,-4.01807156559600e-01°)
1.25025903021771e+02	(1.06777197732032e-03dB,-4.02733698465692e-01°)
1.25314117494141e+02	(1.07346198537299e-03dB,-4.03662378217703e-01°)
1.25602996369487e+02	(1.07917825928142e-03dB,-4.04593200757369e-01°)
1.25892541179416e+02	(1.08492092028523e-03dB,-4.05526171037909e-01°)
1.26182753459066e+02	(1.09069009020004e-03dB,-4.06461294024060e-01°)
1.26473634747114e+02	(1.09648589141752e-03dB,-4.07398574692096e-01°)
1.26765186585784e+02	(1.10230844686678e-03dB,-4.08338018029856e-01°)
1.27057410520853e+02	(1.10815788006839e-03dB,-4.09279629036777e-01°)
1.27350308101665e+02	(1.11403431509386e-03dB,-4.10223412723917e-01°)
1.27643880881134e+02	(1.11993787660034e-03dB,-4.11169374113983e-01°)
1.27938130415752e+02	(1.12586868982098e-03dB,-4.12117518241358e-01°)
1.28233058265601e+02	(1.13182688056687e-03dB,-4.13067850152127e-01°)
1.28528665994361e+02	(1.13781257521736e-03dB,-4.14020374904111e-01°)
1.28824955169313e+02	(1.14382590075093e-03dB,-4.14975097566892e-01°)
1.29121927361353e+02	(1.14986698472010e-03dB,-4.15932023221833e-01°)
1.29419584144998e+02	(1.15593595528424e-03dB,-4.16891156962116e-01°)
1.29717927098395e+02	(1.16203294115936e-03dB,-4.17852503892773e-01°)
1.30016957803328e+02	(1.16815807170495e-03dB,-4.18816069130691e-01°)
1.30316677845229e+02	(1.17431147683718e-03dB,-4.19781857804675e-01°)
1.30617088813183e+02	(1.18049328709634e-03dB,-4.20749875055443e-01°)
1.30918192299940e+02	(1.18670363360061e-03dB,-4.21720126035679e-01°)
1.31219989901920e+02	(1.19294264810968e-03dB,-4.22692615910043e-01°)
1.31522483219223e+02	(1.19921046294371e-03dB,-4.23667349855216e-01°)
1.31825673855640e+02	(1.20550721108172e-03dB,-4.24644333059910e-01°)
1.32129563418657e+02	(1.21183302609214e-03dB,-4.25623570724914e-01°)
1.32434153519466e+02	(1.21818804216365e-03dB,-4.26605068063113e-01°)
1.32739445772973e+02	(1.22457239409941e-03dB,-4.27588830299517e-01°)
1.33045441797808e+02	(1.23098621733439e-03dB,-4.28574862671294e-01°)
1.33352143216332e+02	(1.23742964792574e-03dB,-4.29563170427793e-01°)
1.33659551654643e+02	(1.24390282255082e-03dB,-4.30553758830577e-01°)
1.33967668742593e+02	(1.25040587853422e-03dB,-4.31546633153454e-01°)
1.34276496113786e+02	(1.25693895382270e-03dB,-4.32541798682500e-01°)
1.34586035405594e+02	(1.26350218700633e-03dB,-4.33539260716087e-01°)
1.34896288259165e+02	(1.27009571729156e-03dB,-4.34539024564927e-01°)
1.35207256319427e+02	(1.27671968458216e-03dB,-4.35541095552077e-01°)
1.35518941235103e+02	(1.28337422936160e-03dB,-4.36545479012993e-01°)
1.35831344658715e+02	(1.29005949281258e-03dB,-4.37552180295542e-01°)
1.36144468246594e+02	(1.29677561673606e-03dB,-4.38561204760041e-01°)
1.36458313658892e+02	(1.30352274362644e-03dB,-4.39572557779276e-01°)
1.36772882559584e+02	(1.31030101659250e-03dB,-4.40586244738547e-01°)
1.37088176616484e+02	(1.31711057942102e-03dB,-4.41602271035686e-01°)
1.37404197501251e+02	(1.32395157657676e-03dB,-4.42620642081087e-01°)
1.37720946889394e+02	(1.33082415317935e-03dB,-4.43641363297742e-01°)
1.38038426460288e+02	(1.33772845501096e-03dB,-4.44664440121267e-01°)
1.38356637897177e+02	(1.34466462854137e-03dB,-4.45689877999933e-01°)
1.38675582887188e+02	(1.35163282090677e-03dB,-4.46717682394696e-01°)
1.38995263121334e+02	(1.35863317992899e-03dB,-4.47747858779222e-01°)
1.39315680294529e+02	(1.36566585411362e-03dB,-4.48780412639929e-01°)
1.39636836105593e+02	(1.37273099263646e-03dB,-4.49815349476007e-01°)
1.39958732257261e+02	(1.37982874538789e-03dB,-4.50852674799449e-01°)
1.40281370456195e+02	(1.38695926292847e-03dB,-4.51892394135088e-01°)
1.40604752412990e+02	(1.39412269652372e-03dB,-4.52934513020621e-01°)
1.40928879842186e+02	(1.40131919813244e-03dB,-4.53979037006644e-01°)
1.41253754462274e+02	(1.40854892042221e-03dB,-4.55025971656676e-01°)
1.41579377995707e+02	(1.41581201676163e-03dB,-4.56075322547201e-01°)
1.41905752168908e+02	(1.42310864122610e-03dB,-4.57127095267688e-01°)
1.42232878712281e+02	(1.43043894861133e-03dB,-4.58181295420624e-01°)
1.42560759360218e+02	(1.43780309440436e-03dB,-4.59237928621556e-01°)
1.42889395851109e+02	(1.44520123483760e-03dB,-4.60297000499098e-01°)
1.43218789927353e+02	(1.45263352685406e-03dB,-4.61358516694991e-01°)
1.43548943335364e+02	(1.46010012811897e-03dB,-4.62422482864115e-01°)
1.43879857825583e+02	(1.46760119702549e-03dB,-4.63488904674523e-01°)
1.44211535152486e+02	(1.47513689270437e-03dB,-4.64557787807481e-01°)
1.44543977074592e+02	(1.48270737501819e-03dB,-4.65629137957482e-01°)
1.44877185354475e+02	(1.49031280456322e-03dB,-4.66702960832308e-01°)
1.45211161758773e+02	(1.49795334267910e-03dB,-4.67779262153021e-01°)
1.45545908058195e+02	(1.50562915145456e-03dB,-4.68858047654030e-01°)
1.45881426027534e+02	(1.51334039372170e-03dB,-4.69939323083105e-01°)
1.46217717445671e+02	(1.52108723307905e-03dB,-4.71023094201409e-01°)
1.46554784095590e+02	(1.52886983384726e-03dB,-4.72109366783540e-01°)
1.46892627764385e+02	(1.53668836114618e-03dB,-4.73198146617552e-01°)
1.47231250243271e+02	(1.54454298083126e-03dB,-4.74289439504993e-01°)
1.47570653327588e+02	(1.55243385953399e-03dB,-4.75383251260931e-01°)
1.47910838816819e+02	(1.56036116464262e-03dB,-4.76479587714003e-01°)
1.48251808514594e+02	(1.56832506434655e-03dB,-4.77578454706421e-01°)
1.48593564228699e+02	(1.57632572758416e-03dB,-4.78679858094027e-01°)
1.48936107771090e+02	(1.58436332408530e-03dB,-4.79783803746316e-01°)
1.49279440957898e+02	(1.59243802436356e-03dB,-4.80890297546466e-01°)
1.49623565609442e+02	(1.60054999971040e-03dB,-4.81999345391380e-01°)
1.49968483550236e+02	(1.60869942223190e-03dB,-4.83110953191706e-01°)
1.50314196609001e+02	(1.61688646480041e-03dB,-4.84225126871883e-01°)
1.50660706618673e+02	(1.62511130110092e-03dB,-4.85341872370167e-01°)
1.51008015416413e+02	(1.63337410562329e-03dB,-4.86461195638658e-01°)
1.51356124843619e+02	(1.64167505365838e-03dB,-4.87583102643346e-01°)
1.51705036745932e+02	(1.65001432130383e-03dB,-4.88707599364138e-01°)
1.52054752973248e+02	(1.65839208547177e-03dB,-4.89834691794888e-01°)
1.52405275379728e+02	(1.66680852390229e-03dB,-4.90964385943434e-01°)
1.52756605823806e+02	(1.67526381514804e-03dB,-4.92096687831631e-01°)
1.53108746168202e+02	(1.68375813856065e-03dB,-4.93231603495384e-01°)
1.53461698279928e+02	(1.69229167437949e-03dB,-4.94369138984683e-01°)
1.53815464030302e+02	(1.70086460362363e-03dB,-4.95509300363630e-01°)
1.54170045294954e+02	(1.70947710815741e-03dB,-4.96652093710491e-01°)
1.54525443953840e+02	(1.71812937071164e-03dB,-4.97797525117699e-01°)
1.54881661891247e+02	(1.72682157482570e-03dB,-4.98945600691923e-01°)
1.55238700995807e+02	(1.73555390491895e-03dB,-5.00096326554071e-01°)
1.55596563160506e+02	(1.74432654623279e-03dB,-5.01249708839346e-01°)
1.55955250282694e+02	(1.75313968488854e-03dB,-5.02405753697268e-01°)
1.56314764264094e+02	(1.76199350785657e-03dB,-5.03564467291716e-01°)
1.56675107010813e+02	(1.77088820296398e-03dB,-5.04725855800955e-01°)
1.57036280433354e+02	(1.77982395891390e-03dB,-5.05889925417675e-01°)
1.57398286446620e+02	(1.78880096528351e-03dB,-5.07056682349028e-01°)
1.57761126969933e+02	(1.79781941252408e-03dB,-5.08226132816652e-01°)
1.58124803927037e+02	(1.80687949194740e-03dB,-5.09398283056721e-01°)
1.58489319246110e+02	(1.81598139577786e-03dB,-5.10573139319965e-01°)
1.58854674859776e+02	(1.82512531711388e-03dB,-5.11750707871713e-01°)
1.59220872705115e+02	(1.83431144993944e-03dB,-5.12930994991931e-01°)
1.59587914723672e+02	(1.84353998914722e-03dB,-5.14114006975245e-01°)
1.59955802861465e+02	(1.85281113052315e-03dB,-5.15299750130990e-01°)
1.60324539069002e+02	(1.86212507075415e-03dB,-5.16488230783237e-01°)
1.60694125301286e+02	(1.87148200744346e-03dB,-5.17679455270824e-01°)
1.61064563517825e+02	(1.88088213909913e-03dB,-5.18873429947409e-01°)
1.61435855682647e+02	(1.89032566514362e-03dB,-5.20070161181487e-01°)
1.61808003764305e+02	(1.89981278593691e-03dB,-5.21269655356431e-01°)
1.62181009735891e+02	(1.90934370275531e-03dB,-5.22471918870531e-01°)
1.62554875575047e+02	(1.91891861778368e-03dB,-5.23676958137033e-01°)
1.62929603263970e+02	(1.92853773417910e-03dB,-5.24884779584164e-01°)
1.63305194789432e+02	(1.93820125600527e-03dB,-5.26095389655175e-01°)
1.63681652142779e+02	(1.94790938829226e-03dB,-5.27308794808376e-01°)
1.64058977319952e+02	(1.95766233699986e-03dB,-5.28525001517175e-01°)
1.64437172321491e+02	(1.96746030903302e-03dB,-5.29744016270107e-01°)
1.64816239152549e+02	(1.97730351228037e-03dB,-5.30965845570878e-01°)
1.65196179822900e+02	(1.98719215556599e-03dB,-5.32190495938395e-01°)
1.65576996346951e+02	(1.99712644868413e-03dB,-5.33417973906809e-01°)
1.65958690743754e+02	(2.00710660240496e-03dB,-5.34648286025549e-01°)
1.66341265037015e+02	(2.01713282846686e-03dB,-5.35881438859347e-01°)
1.66724721255104e+02	(2.02720533958022e-03dB,-5.37117438988303e-01°)
1.67109061431069e+02	(2.03732434944674e-03dB,-5.38356293007892e-01°)
1.67494287602642e+02	(2.04749007275554e-03dB,-5.39598007529015e-01°)
1.67880401812254e+02	(2.05770272517546e-03dB,-5.40842589178042e-01°)
1.68267406107045e+02	(2.06796252338970e-03dB,-5.42090044596832e-01°)
1.68655302538872e+02	(2.07826968506306e-03dB,-5.43340380442789e-01°)
1.69044093164324e+02	(2.08862442888046e-03dB,-5.44593603388881e-01°)
1.69433780044731e+02	(2.09902697453348e-03dB,-5.45849720123698e-01°)
1.69824365246172e+02	(2.10947754271061e-03dB,-5.47108737351470e-01°)
1.70215850839493e+02	(2.11997635514938e-03dB,-5.48370661792117e-01°)
1.70608238900310e+02	(2.13052363459194e-03dB,-5.49635500181282e-01°)
1.71001531509027e+02	(2.14111960481978e-03dB,-5.50903259270366e-01°)
1.71395730750840e+02	(2.15176449063054e-03dB,-5.52173945826580e-01°)
1.71790838715757e+02	(2.16245851788044e-03dB,-5.53447566632965e-01°)
1.72186857498599e+02	(2.17320191345341e-03dB,-5.54724128488437e-01°)
1.72583789199018e+02	(2.18399490529574e-03dB,-5.56003638207831e-01°)
1.72981635921508e+02	(2.19483772239492e-03dB,-5.57286102621931e-01°)
1.73380399775412e+02	(2.20573059479303e-03dB,-5.58571528577515e-01°)
1.73780082874935e+02	(2.21667375360029e-03dB,-5.59859922937387e-01°)
1.74180687339159e+02	(2.22766743101043e-03dB,-5.61151292580424e-01°)
1.74582215292048e+02	(2.23871186026406e-03dB,-5.62445644401606e-01°)
1.74984668862463e+02	(2.24980727568910e-03dB,-5.63742985312065e-01°)
1.75388050184174e+02	(2.26095391269308e-03dB,-5.65043322239109e-01°)
1.75792361395867e+02	(2.27215200778239e-03dB,-5.66346662126274e-01°)
1.76197604641161e+02	(2.28340179853528e-03dB,-5.67653011933362e-01°)
1.76603782068614e+02	(2.29470352364422e-03dB,-5.68962378636478e-01°)
1.77010895831740e+02	(2.30605742290051e-03dB,-5.70274769228058e-01°)
1.77418948089014e+02	(2.31746373720383e-03dB,-5.71590190716930e-01°)
1.77827941003890e+02	(2.32892270854879e-03dB,-5.72908650128345e-01°)
1.78237876744807e+02	(2.34043458007885e-03dB,-5.74230154504006e-01°)
1.78648757485203e+02	(2.35199959603811e-03dB,-5.75554710902120e-01°)
1.79060585403527e+02	(2.36361800180020e-03dB,-5.76882326397431e-01°)
1.79473362683250e+02	(2.37529004388565e-03dB,-5.78213008081268e-01°)
1.79887091512876e+02	(2.38701596993480e-03dB,-5.79546763061584e-01°)
1.80301774085954e+02	(2.39879602874835e-03dB,-5.80883598462979e-01°)
1.80717412601090e+02	(2.41063047027184e-03dB,-5.82223521426767e-01°)
1.81134009261958e+02	(2.42251954558796e-03dB,-5.83566539110998e-01°)
1.81551566277311e+02	(2.43446350697050e-03dB,-5.84912658690501e-01°)
1.81970085860996e+02	(2.44646260783420e-03dB,-5.86261887356931e-01°)
1.82389570231961e+02	(2.45851710277519e-03dB,-5.87614232318807e-01°)
1.82810021614272e+02	(2.47062724755560e-03dB,-5.88969700801551e-01°)
1.83231442237119e+02	(2.48279329912660e-03dB,-5.90328300047529e-01°)
1.83653834334832e+02	(2.49501551562455e-03dB,-5.91690037316095e-01°)
1.84077200146893e+02	(2.50729415638838e-03dB,-5.93054919883622e-01°)
1.84501541917945e+02	(2.51962948193246e-03dB,-5.94422955043566e-01°)
1.84926861897805e+02	(2.53202175399488e-03dB,-5.95794150106483e-01°)
1.85353162341478e+02	(2.54447123550846e-03dB,-5.97168512400079e-01°)
1.85780445509167e+02	(2.55697819062578e-03dB,-5.98546049269260e-01°)
1.86208713666284e+02	(2.56954288473266e-03dB,-5.99926768076164e-01°)
1.86637969083464e+02	(2.58216558441731e-03dB,-6.01310676200199e-01°)
1.87068214036577e+02	(2.59484655751075e-03dB,-6.02697781038105e-01°)
1.87499450806739e+02	(2.60758607308487e-03dB,-6.04088090003970e-01°)
1.87931681680324e+02	(2.62038440144664e-03dB,-6.05481610529289e-01°)
1.88364908948977e+02	(2.63324181415541e-03dB,-6.06878350063006e-01°)
1.88799134909627e+02	(2.64615858401904e-03dB,-6.08278316071546e-01°)
1.89234361864495e+02	(2.65913498512085e-03dB,-6.09681516038866e-01°)
1.89670592121112e+02	(2.67217129279456e-03dB,-6.11087957466500e-01°)
1.90107827992327e+02	(2.68526778365505e-03dB,-6.12497647873588e-01°)
1.90546071796322e+02	(2.69842473558877e-03dB,-6.13910594796939e-01°)
1.90985325856621e+02	(2.71164242776713e-03dB,-6.15326805791053e-01°)
1.91425592502106e+02	(2.72492114065425e-03dB,-6.16746288428182e-01°)
1.91866874067026e+02	(2.73826115600495e-03dB,-6.18169050298360e-01°)
1.92309172891013e+02	(2.75166275687824e-03dB,-6.19595099009454e-01°)
