time	V(vout)	V(vout2)
0.000000000000000e+00	0.000000e+00	9.257449e-17
1.000000000000000e-04	0.000000e+00	5.751214e-16
1.000000006677476e-04	6.677476e-03	1.565844e-07
1.000000010357747e-04	1.035775e-02	3.652364e-07
1.000000017718289e-04	1.771829e-02	1.103005e-06
1.000000032439372e-04	3.243937e-02	3.773012e-06
1.000000061881539e-04	6.188154e-02	1.379635e-05
1.000000120765873e-04	1.207659e-01	5.184980e-05
1.000000238534541e-04	2.385345e-01	1.946130e-04
1.000000474071877e-04	4.740719e-01	6.146020e-04
1.000000528925328e-04	5.289253e-01	7.444223e-04
1.000000638632230e-04	6.386322e-01	1.066080e-03
1.000000780586196e-04	7.805862e-01	1.549174e-03
1.000001000000000e-04	1.000000e+00	2.383986e-03
1.000001065824141e-04	1.000000e+00	2.654674e-03
1.000001153589663e-04	1.000000e+00	2.992863e-03
1.000001329120706e-04	1.000000e+00	3.596472e-03
1.000001680182793e-04	1.000000e+00	4.568757e-03
1.000002382306966e-04	1.000000e+00	5.876282e-03
1.000003786555312e-04	1.000000e+00	7.181579e-03
1.000006595052004e-04	1.000000e+00	8.035520e-03
1.000009877266833e-04	1.000000e+00	8.212610e-03
1.000015461668802e-04	1.000000e+00	8.203441e-03
1.000025437023297e-04	1.000000e+00	8.181897e-03
1.000045387732285e-04	1.000000e+00	8.102406e-03
1.000085289150261e-04	1.000000e+00	7.827036e-03
1.000165091986214e-04	1.000000e+00	6.991887e-03
1.000288343062537e-04	1.000000e+00	5.370389e-03
1.000454424034178e-04	1.000000e+00	3.205308e-03
1.000696127794518e-04	1.000000e+00	7.946034e-04
1.000894495551523e-04	1.000000e+00	-2.802079e-04
1.001101643030239e-04	1.000000e+00	-5.757419e-04
1.001325576100616e-04	1.000000e+00	-4.342090e-04
1.001606382797631e-04	1.000000e+00	-1.306820e-04
1.002047367750618e-04	1.000000e+00	1.388720e-04
1.002636036914604e-04	1.000000e+00	2.129198e-04
1.003278420786007e-04	1.000000e+00	2.356489e-04
1.004434143134199e-04	1.000000e+00	3.934348e-04
1.006745587830583e-04	1.000000e+00	9.132123e-04
1.011368477223350e-04	1.000000e+00	2.467965e-03
1.016251289723350e-04	1.000000e+00	4.831058e-03
1.021134102223350e-04	1.000000e+00	8.009900e-03
1.026016914723350e-04	1.000000e+00	1.200105e-02
1.030899727223350e-04	1.000000e+00	1.678734e-02
1.035782539723350e-04	1.000000e+00	2.235270e-02
1.040665352223350e-04	1.000000e+00	2.867939e-02
1.045548164723350e-04	1.000000e+00	3.575022e-02
1.050430977223350e-04	1.000000e+00	4.354693e-02
1.055313789723350e-04	1.000000e+00	5.205137e-02
1.060196602223350e-04	1.000000e+00	6.124478e-02
1.065079414723350e-04	1.000000e+00	7.110822e-02
1.069962227223350e-04	1.000000e+00	8.162247e-02
1.074845039723350e-04	1.000000e+00	9.276792e-02
1.079727852223350e-04	1.000000e+00	1.045249e-01
1.084610664723350e-04	1.000000e+00	1.168734e-01
1.089493477223350e-04	1.000000e+00	1.297932e-01
1.094376289723350e-04	1.000000e+00	1.432639e-01
1.099259102223350e-04	1.000000e+00	1.572651e-01
1.104141914723350e-04	1.000000e+00	1.717761e-01
1.109024727223350e-04	1.000000e+00	1.867761e-01
1.118790352223350e-04	1.000000e+00	2.181596e-01
1.128555977223350e-04	1.000000e+00	2.512479e-01
1.138321602223351e-04	1.000000e+00	2.858728e-01
1.152970039723351e-04	1.000000e+00	3.403233e-01
1.167618477223351e-04	1.000000e+00	3.972877e-01
1.177384102223351e-04	1.000000e+00	4.363849e-01
1.187149727223351e-04	1.000000e+00	4.761888e-01
1.192032539723351e-04	1.000000e+00	4.963058e-01
1.196915352223351e-04	1.000000e+00	5.165397e-01
1.201798164723351e-04	1.000000e+00	5.368711e-01
1.206680977223351e-04	1.000000e+00	5.572807e-01
1.211563789723351e-04	1.000000e+00	5.777496e-01
1.216446602223351e-04	1.000000e+00	5.982589e-01
1.221329414723350e-04	1.000000e+00	6.187901e-01
1.226212227223350e-04	1.000000e+00	6.393251e-01
1.231095039723350e-04	1.000000e+00	6.598458e-01
1.235977852223350e-04	1.000000e+00	6.803348e-01
1.240860664723350e-04	1.000000e+00	7.007746e-01
1.245743477223350e-04	1.000000e+00	7.211482e-01
1.250626289723350e-04	1.000000e+00	7.414389e-01
1.255509102223350e-04	1.000000e+00	7.616305e-01
1.260391914723350e-04	1.000000e+00	7.817069e-01
1.265274727223350e-04	1.000000e+00	8.016524e-01
1.270157539723350e-04	1.000000e+00	8.214525e-01
1.275040352223350e-04	1.000000e+00	8.410919e-01
1.284805977223351e-04	1.000000e+00	8.798292e-01
1.289688789723351e-04	1.000000e+00	8.988996e-01
1.294571602223351e-04	1.000000e+00	9.177531e-01
1.299454414723351e-04	1.000000e+00	9.363770e-01
1.304337227223351e-04	1.000000e+00	9.547586e-01
1.309220039723351e-04	1.000000e+00	9.728859e-01
1.318985664723351e-04	1.000000e+00	1.008331e+00
1.328751289723351e-04	1.000000e+00	1.042623e+00
1.338516914723351e-04	1.000000e+00	1.075681e+00
1.353165352223351e-04	1.000000e+00	1.122791e+00
1.367813789723351e-04	1.000000e+00	1.166732e+00
1.377579414723351e-04	1.000000e+00	1.194171e+00
1.387345039723351e-04	1.000000e+00	1.220069e+00
1.392227852223351e-04	1.000000e+00	1.232428e+00
1.397110664723351e-04	1.000000e+00	1.244386e+00
1.401993477223351e-04	1.000000e+00	1.255941e+00
1.406876289723351e-04	1.000000e+00	1.267089e+00
1.411759102223351e-04	1.000000e+00	1.277825e+00
1.416641914723351e-04	1.000000e+00	1.288149e+00
1.426407539723351e-04	1.000000e+00	1.307546e+00
1.436173164723351e-04	1.000000e+00	1.325266e+00
1.445938789723351e-04	1.000000e+00	1.341301e+00
1.460587227223351e-04	1.000000e+00	1.362192e+00
1.475235664723351e-04	1.000000e+00	1.379307e+00
1.489884102223351e-04	1.000000e+00	1.392691e+00
1.504532539723351e-04	1.000000e+00	1.402419e+00
1.514298164723351e-04	1.000000e+00	1.406919e+00
1.524063789723351e-04	1.000000e+00	1.409872e+00
1.528946602223351e-04	1.000000e+00	1.410780e+00
1.533829414723351e-04	1.000000e+00	1.411316e+00
1.538712227223351e-04	1.000000e+00	1.411485e+00
1.543595039723351e-04	1.000000e+00	1.411294e+00
1.548477852223351e-04	1.000000e+00	1.410747e+00
1.553360664723351e-04	1.000000e+00	1.409852e+00
1.563126289723351e-04	1.000000e+00	1.407041e+00
1.572891914723351e-04	1.000000e+00	1.402913e+00
1.582657539723351e-04	1.000000e+00	1.397526e+00
1.597305977223351e-04	1.000000e+00	1.387209e+00
1.611954414723351e-04	1.000000e+00	1.374397e+00
1.626602852223351e-04	1.000000e+00	1.359305e+00
1.641251289723351e-04	1.000000e+00	1.342157e+00
1.655899727223351e-04	1.000000e+00	1.323182e+00
1.666362896866208e-04	1.000000e+00	1.308428e+00
1.676826066509065e-04	1.000000e+00	1.293156e+00
1.687289236151922e-04	1.000000e+00	1.277368e+00
1.697752405794779e-04	1.000000e+00	1.261063e+00
1.708215575437637e-04	1.000000e+00	1.244241e+00
1.718678745080494e-04	1.000000e+00	1.226903e+00
1.729141914723351e-04	1.000000e+00	1.209047e+00
1.738907539723351e-04	1.000000e+00	1.192368e+00
1.748673164723351e-04	1.000000e+00	1.175555e+00
1.753555977223351e-04	1.000000e+00	1.167117e+00
1.758438789723351e-04	1.000000e+00	1.158668e+00
1.763321602223351e-04	1.000000e+00	1.150217e+00
1.768204414723351e-04	1.000000e+00	1.141769e+00
1.773087227223351e-04	1.000000e+00	1.133334e+00
1.777970039723351e-04	1.000000e+00	1.124917e+00
1.782852852223351e-04	1.000000e+00	1.116526e+00
1.787735664723351e-04	1.000000e+00	1.108168e+00
1.792618477223351e-04	1.000000e+00	1.099849e+00
1.797501289723351e-04	1.000000e+00	1.091576e+00
1.802384102223351e-04	1.000000e+00	1.083356e+00
1.807266914723351e-04	1.000000e+00	1.075194e+00
1.812149727223351e-04	1.000000e+00	1.067098e+00
1.817032539723351e-04	1.000000e+00	1.059073e+00
1.821915352223351e-04	1.000000e+00	1.051124e+00
1.826798164723351e-04	1.000000e+00	1.043258e+00
1.831680977223351e-04	1.000000e+00	1.035481e+00
1.836563789723351e-04	1.000000e+00	1.027797e+00
1.841446602223351e-04	1.000000e+00	1.020211e+00
1.846329414723351e-04	1.000000e+00	1.012729e+00
1.856095039723351e-04	1.000000e+00	9.980953e-01
1.865860664723351e-04	1.000000e+00	9.839324e-01
1.875626289723351e-04	1.000000e+00	9.702743e-01
1.890274727223351e-04	1.000000e+00	9.508008e-01
1.904923164723351e-04	1.000000e+00	9.326256e-01
1.914688789723351e-04	1.000000e+00	9.212695e-01
1.924454414723351e-04	1.000000e+00	9.105456e-01
1.929337227223351e-04	1.000000e+00	9.054261e-01
1.934220039723351e-04	1.000000e+00	9.004707e-01
1.939102852223351e-04	1.000000e+00	8.956813e-01
1.943985664723351e-04	1.000000e+00	8.910592e-01
1.948868477223351e-04	1.000000e+00	8.866059e-01
1.953751289723351e-04	1.000000e+00	8.823224e-01
1.963516914723351e-04	1.000000e+00	8.742691e-01
1.973282539723351e-04	1.000000e+00	8.669056e-01
1.983048164723351e-04	1.000000e+00	8.602352e-01
1.997696602223351e-04	1.000000e+00	8.515311e-01
2.012345039723351e-04	1.000000e+00	8.443819e-01
2.026993477223351e-04	1.000000e+00	8.387694e-01
2.041641914723351e-04	1.000000e+00	8.346642e-01
2.051407539723351e-04	1.000000e+00	8.327457e-01
2.061173164723351e-04	1.000000e+00	8.314658e-01
2.066055977223351e-04	1.000000e+00	8.310603e-01
2.070938789723351e-04	1.000000e+00	8.308085e-01
2.075821602223351e-04	1.000000e+00	8.307080e-01
2.080704414723351e-04	1.000000e+00	8.307564e-01
2.085587227223351e-04	1.000000e+00	8.309515e-01
2.095352852223351e-04	1.000000e+00	8.317711e-01
2.105118477223351e-04	1.000000e+00	8.331457e-01
2.114884102223351e-04	1.000000e+00	8.350531e-01
2.129532539723351e-04	1.000000e+00	8.388613e-01
2.144180977223351e-04	1.000000e+00	8.437316e-01
2.158829414723351e-04	1.000000e+00	8.495764e-01
2.173477852223351e-04	1.000000e+00	8.563044e-01
2.188126289723351e-04	1.000000e+00	8.638225e-01
2.202774727223351e-04	1.000000e+00	8.720351e-01
2.212540352223351e-04	1.000000e+00	8.779189e-01
2.222305977223351e-04	1.000000e+00	8.839699e-01
2.232071602223351e-04	1.000000e+00	8.901880e-01
2.241837227223351e-04	1.000000e+00	8.965733e-01
2.251602852223351e-04	1.000000e+00	9.031257e-01
2.261368477223351e-04	1.000000e+00	9.098453e-01
2.271134102223351e-04	1.000000e+00	9.167321e-01
2.280899727223351e-04	1.000000e+00	9.236209e-01
2.285782539723351e-04	1.000000e+00	9.270839e-01
2.290665352223351e-04	1.000000e+00	9.305550e-01
2.295548164723351e-04	1.000000e+00	9.340312e-01
2.300430977223351e-04	1.000000e+00	9.375092e-01
2.305313789723351e-04	1.000000e+00	9.409860e-01
2.310196602223351e-04	1.000000e+00	9.444587e-01
2.315079414723351e-04	1.000000e+00	9.479243e-01
2.319962227223351e-04	1.000000e+00	9.513797e-01
2.324845039723351e-04	1.000000e+00	9.548222e-01
2.329727852223351e-04	1.000000e+00	9.582492e-01
2.334610664723351e-04	1.000000e+00	9.616576e-01
2.344376289723351e-04	1.000000e+00	9.684087e-01
2.354141914723351e-04	1.000000e+00	9.750549e-01
2.363907539723351e-04	1.000000e+00	9.815764e-01
2.368790352223351e-04	1.000000e+00	9.847847e-01
2.373673164723351e-04	1.000000e+00	9.879549e-01
2.378555977223351e-04	1.000000e+00	9.910850e-01
2.388321602223351e-04	1.000000e+00	9.972163e-01
2.398087227223351e-04	1.000000e+00	1.003163e+00
2.407852852223351e-04	1.000000e+00	1.008910e+00
2.422501289723352e-04	1.000000e+00	1.017127e+00
2.437149727223352e-04	1.000000e+00	1.024825e+00
2.451798164723352e-04	1.000000e+00	1.031969e+00
2.461563789723352e-04	1.000000e+00	1.036409e+00
2.466446602223352e-04	1.000000e+00	1.038529e+00
2.471329414723352e-04	1.000000e+00	1.040582e+00
2.476212227223352e-04	1.000000e+00	1.042567e+00
2.481095039723352e-04	1.000000e+00	1.044483e+00
2.485977852223352e-04	1.000000e+00	1.046329e+00
2.495743477223352e-04	1.000000e+00	1.049813e+00
2.505509102223352e-04	1.000000e+00	1.053014e+00
2.515274727223352e-04	1.000000e+00	1.055931e+00
2.529923164723352e-04	1.000000e+00	1.059770e+00
2.544571602223352e-04	1.000000e+00	1.062968e+00
2.559220039723352e-04	1.000000e+00	1.065529e+00
2.573868477223352e-04	1.000000e+00	1.067465e+00
2.588516914723352e-04	1.000000e+00	1.068790e+00
2.598282539723352e-04	1.000000e+00	1.069343e+00
2.603165352223352e-04	1.000000e+00	1.069523e+00
2.608048164723352e-04	1.000000e+00	1.069639e+00
2.612930977223352e-04	1.000000e+00	1.069693e+00
2.617813789723352e-04	1.000000e+00	1.069685e+00
2.622696602223352e-04	1.000000e+00	1.069617e+00
2.632462227223352e-04	1.000000e+00	1.069303e+00
2.642227852223352e-04	1.000000e+00	1.068760e+00
2.651993477223352e-04	1.000000e+00	1.067996e+00
2.666641914723352e-04	1.000000e+00	1.066459e+00
2.681290352223352e-04	1.000000e+00	1.064483e+00
2.695938789723352e-04	1.000000e+00	1.062103e+00
2.710587227223352e-04	1.000000e+00	1.059357e+00
2.725235664723352e-04	1.000000e+00	1.056284e+00
2.735698834366209e-04	1.000000e+00	1.053873e+00
2.746162004009066e-04	1.000000e+00	1.051366e+00
2.756625173651923e-04	1.000000e+00	1.048762e+00
2.767088343294780e-04	1.000000e+00	1.046061e+00
2.777551512937637e-04	1.000000e+00	1.043263e+00
2.788014682580495e-04	1.000000e+00	1.040368e+00
2.798477852223352e-04	1.000000e+00	1.037377e+00
2.813126289723352e-04	1.000000e+00	1.033161e+00
2.822891914723352e-04	1.000000e+00	1.030317e+00
2.827774727223352e-04	1.000000e+00	1.028889e+00
2.832657539723352e-04	1.000000e+00	1.027458e+00
2.837540352223352e-04	1.000000e+00	1.026027e+00
2.842423164723352e-04	1.000000e+00	1.024596e+00
2.847305977223352e-04	1.000000e+00	1.023166e+00
2.852188789723352e-04	1.000000e+00	1.021739e+00
2.857071602223352e-04	1.000000e+00	1.020316e+00
2.861954414723352e-04	1.000000e+00	1.018898e+00
2.866837227223352e-04	1.000000e+00	1.017486e+00
2.871720039723352e-04	1.000000e+00	1.016081e+00
2.881485664723352e-04	1.000000e+00	1.013299e+00
2.891251289723352e-04	1.000000e+00	1.010559e+00
2.901016914723352e-04	1.000000e+00	1.007869e+00
2.905899727223352e-04	1.000000e+00	1.006546e+00
2.910782539723352e-04	1.000000e+00	1.005237e+00
2.920548164723352e-04	1.000000e+00	1.002671e+00
2.930313789723352e-04	1.000000e+00	1.000177e+00
2.940079414723352e-04	1.000000e+00	9.977617e-01
2.954727852223352e-04	1.000000e+00	9.942983e-01
2.969376289723352e-04	1.000000e+00	9.910424e-01
2.984024727223352e-04	1.000000e+00	9.880092e-01
2.993790352223352e-04	1.000000e+00	9.861172e-01
2.998673164723352e-04	1.000000e+00	9.852115e-01
3.003555977223352e-04	1.000000e+00	9.843332e-01
3.008438789723352e-04	1.000000e+00	9.834825e-01
3.013321602223352e-04	1.000000e+00	9.826598e-01
3.018204414723352e-04	1.000000e+00	9.818654e-01
3.023087227223352e-04	1.000000e+00	9.810995e-01
3.032852852223352e-04	1.000000e+00	9.796540e-01
3.042618477223352e-04	1.000000e+00	9.783245e-01
3.052384102223352e-04	1.000000e+00	9.771121e-01
3.067032539723352e-04	1.000000e+00	9.755138e-01
3.081680977223352e-04	1.000000e+00	9.741797e-01
3.096329414723352e-04	1.000000e+00	9.731076e-01
3.110977852223352e-04	1.000000e+00	9.722933e-01
3.125626289723352e-04	1.000000e+00	9.717309e-01
3.135391914723352e-04	1.000000e+00	9.714923e-01
3.140274727223352e-04	1.000000e+00	9.714130e-01
3.145157539723352e-04	1.000000e+00	9.713597e-01
3.150040352223352e-04	1.000000e+00	9.713323e-01
3.154923164723352e-04	1.000000e+00	9.713303e-01
3.164688789723352e-04	1.000000e+00	9.714009e-01
3.174454414723352e-04	1.000000e+00	9.715679e-01
3.184220039723352e-04	1.000000e+00	9.718279e-01
3.198868477223352e-04	1.000000e+00	9.723836e-01
3.213516914723352e-04	1.000000e+00	9.731259e-01
3.228165352223352e-04	1.000000e+00	9.740403e-01
3.242813789723352e-04	1.000000e+00	9.751116e-01
3.257462227223352e-04	1.000000e+00	9.763241e-01
3.268622941509067e-04	1.000000e+00	9.773508e-01
3.279783655794781e-04	1.000000e+00	9.784251e-01
3.290944370080495e-04	1.000000e+00	9.795470e-01
3.302105084366209e-04	1.000000e+00	9.807165e-01
3.313265798651924e-04	1.000000e+00	9.819335e-01
3.324426512937638e-04	1.000000e+00	9.831981e-01
3.335587227223352e-04	1.000000e+00	9.845104e-01
3.350235664723352e-04	1.000000e+00	9.862430e-01
3.360001289723352e-04	1.000000e+00	9.874125e-01
3.369766914723352e-04	1.000000e+00	9.885883e-01
3.374649727223352e-04	1.000000e+00	9.891773e-01
3.379532539723352e-04	1.000000e+00	9.897663e-01
3.389298164723352e-04	1.000000e+00	9.909422e-01
3.394180977223352e-04	1.000000e+00	9.915283e-01
3.399063789723352e-04	1.000000e+00	9.921123e-01
3.403946602223352e-04	1.000000e+00	9.926938e-01
3.413712227223352e-04	1.000000e+00	9.938476e-01
3.423477852223352e-04	1.000000e+00	9.949861e-01
3.433243477223352e-04	1.000000e+00	9.961058e-01
3.443009102223352e-04	1.000000e+00	9.972035e-01
3.452774727223352e-04	1.000000e+00	9.982760e-01
3.467423164723352e-04	1.000000e+00	9.998313e-01
3.482071602223352e-04	1.000000e+00	1.001315e+00
3.496720039723352e-04	1.000000e+00	1.002718e+00
3.511368477223352e-04	1.000000e+00	1.004034e+00
3.526016914723352e-04	1.000000e+00	1.005257e+00
3.535782539723352e-04	1.000000e+00	1.006018e+00
3.540665352223353e-04	1.000000e+00	1.006381e+00
3.545548164723353e-04	1.000000e+00	1.006734e+00
3.550430977223353e-04	1.000000e+00	1.007075e+00
3.555313789723353e-04	1.000000e+00	1.007404e+00
3.565079414723353e-04	1.000000e+00	1.008027e+00
3.574845039723353e-04	1.000000e+00	1.008603e+00
3.584610664723353e-04	1.000000e+00	1.009131e+00
3.599259102223353e-04	1.000000e+00	1.009832e+00
3.613907539723353e-04	1.000000e+00	1.010424e+00
3.628555977223353e-04	1.000000e+00	1.010909e+00
3.643204414723353e-04	1.000000e+00	1.011286e+00
3.657852852223353e-04	1.000000e+00	1.011559e+00
3.667618477223353e-04	1.000000e+00	1.011683e+00
3.677384102223353e-04	1.000000e+00	1.011764e+00
3.682266914723353e-04	1.000000e+00	1.011788e+00
3.687149727223353e-04	1.000000e+00	1.011801e+00
3.696915352223353e-04	1.000000e+00	1.011797e+00
3.706680977223353e-04	1.000000e+00	1.011752e+00
3.716446602223353e-04	1.000000e+00	1.011667e+00
3.731095039723353e-04	1.000000e+00	1.011471e+00
3.745743477223353e-04	1.000000e+00	1.011195e+00
3.760391914723353e-04	1.000000e+00	1.010847e+00
3.775040352223353e-04	1.000000e+00	1.010431e+00
3.789688789723353e-04	1.000000e+00	1.009954e+00
3.801547048651924e-04	1.000000e+00	1.009519e+00
3.813405307580496e-04	1.000000e+00	1.009062e+00
3.825263566509067e-04	1.000000e+00	1.008581e+00
3.837121825437638e-04	1.000000e+00	1.008077e+00
3.848980084366210e-04	1.000000e+00	1.007549e+00
3.860838343294781e-04	1.000000e+00	1.006999e+00
3.872696602223353e-04	1.000000e+00	1.006426e+00
3.881764682580496e-04	1.000000e+00	1.005983e+00
3.890832762937638e-04	1.000000e+00	1.005539e+00
3.899900843294781e-04	1.000000e+00	1.005093e+00
3.908968923651924e-04	1.000000e+00	1.004646e+00
3.918037004009067e-04	1.000000e+00	1.004198e+00
3.927105084366210e-04	1.000000e+00	1.003748e+00
3.936173164723353e-04	1.000000e+00	1.003298e+00
3.945938789723353e-04	1.000000e+00	1.002820e+00
3.955704414723353e-04	1.000000e+00	1.002347e+00
3.970352852223353e-04	1.000000e+00	1.001652e+00
3.985001289723353e-04	1.000000e+00	1.000976e+00
3.999649727223353e-04	1.000000e+00	1.000325e+00
4.014298164723353e-04	1.000000e+00	9.997022e-01
4.023366245080496e-04	1.000000e+00	9.993308e-01
4.032434325437638e-04	1.000000e+00	9.989738e-01
4.041502405794781e-04	1.000000e+00	9.986313e-01
4.050570486151924e-04	1.000000e+00	9.983032e-01
4.059638566509067e-04	1.000000e+00	9.979896e-01
4.068706646866210e-04	1.000000e+00	9.976903e-01
4.077774727223353e-04	1.000000e+00	9.974055e-01
4.082657539723353e-04	1.000000e+00	9.972596e-01
4.092423164723353e-04	1.000000e+00	9.969817e-01
4.102188789723353e-04	1.000000e+00	9.967232e-01
4.116837227223353e-04	1.000000e+00	9.963721e-01
4.131485664723353e-04	1.000000e+00	9.960654e-01
4.146134102223353e-04	1.000000e+00	9.958036e-01
4.160782539723353e-04	1.000000e+00	9.955865e-01
4.175430977223353e-04	1.000000e+00	9.954135e-01
4.186591691509068e-04	1.000000e+00	9.953127e-01
4.197752405794782e-04	1.000000e+00	9.952351e-01
4.208913120080496e-04	1.000000e+00	9.951807e-01
4.220073834366210e-04	1.000000e+00	9.951495e-01
4.231234548651925e-04	1.000000e+00	9.951414e-01
4.242395262937639e-04	1.000000e+00	9.951565e-01
4.253555977223353e-04	1.000000e+00	9.951949e-01
4.268204414723353e-04	1.000000e+00	9.952734e-01
4.282852852223353e-04	1.000000e+00	9.953845e-01
4.297501289723353e-04	1.000000e+00	9.955260e-01
4.310754637937639e-04	1.000000e+00	9.956831e-01
4.324007986151925e-04	1.000000e+00	9.958560e-01
